
**** 12/10/22 21:42:32 ******* PSpice 17.4.0 (Nov 2018) ******* ID# 0 ********

 ** Profile: "SCHEMATIC1-bias"  [ C:\Users\Robert\Desktop\proiect 1 initial\schema_initiala_osc_triunghiular-pspicefiles\schematic1\b


 ****     CIRCUIT DESCRIPTION


******************************************************************************




** Creating circuit file "bias.cir" 
** WARNING: THIS AUTOMATICALLY GENERATED FILE MAY BE OVERWRITTEN BY SUBSEQUENT SIMULATIONS

*Libraries: 
* Profile Libraries :
* Local Libraries :
* From [PSPICE NETLIST] section of C:\Users\Robert\AppData\Roaming\SPB_Data\cdssetup\OrCAD_PSpice\17.4.0\PSpice.ini file:
.lib "C:\Users\Robert\Desktop\proiect 1\Lib_ModelePSpice_Anexa_1\Lib_ModelePSpice_Anexa_1\Modele_A1_lib\MMBFJ309LT1G.lib" 
.lib "C:\Users\Robert\Desktop\proiect 1\Lib_ModelePSpice_Anexa_1\Lib_ModelePSpice_Anexa_1\Modele_A1_lib\MMBFJ177LT1G.lib" 
.lib "C:\Users\Robert\Desktop\proiect 1\Lib_ModelePSpice_Anexa_1\Lib_ModelePSpice_Anexa_1\Modele_A1_lib\MJD32CG.lib" 
.lib "C:\Users\Robert\Desktop\proiect 1\Lib_ModelePSpice_Anexa_1\Lib_ModelePSpice_Anexa_1\Modele_A1_lib\MJD31CG.lib" 
.lib "C:\Users\Robert\Desktop\proiect 1\Lib_ModelePSpice_Anexa_1\Lib_ModelePSpice_Anexa_1\Modele_A1_lib\IRFR120NPBF.lib" 
.lib "C:\Users\Robert\Desktop\proiect 1\Lib_ModelePSpice_Anexa_1\Lib_ModelePSpice_Anexa_1\Modele_A1_lib\BZX84C10.lib" 
.lib "C:\Users\Robert\Desktop\proiect 1\Lib_ModelePSpice_Anexa_1\Lib_ModelePSpice_Anexa_1\Modele_A1_lib\BZX84C8V2.lib" 
.lib "C:\Users\Robert\Desktop\proiect 1\Lib_ModelePSpice_Anexa_1\Lib_ModelePSpice_Anexa_1\Modele_A1_lib\BZX84C6V8.lib" 
.lib "C:\Users\Robert\Desktop\proiect 1\Lib_ModelePSpice_Anexa_1\Lib_ModelePSpice_Anexa_1\Modele_A1_lib\BZX84C6V2.lib" 
.lib "C:\Users\Robert\Desktop\proiect 1\Lib_ModelePSpice_Anexa_1\Lib_ModelePSpice_Anexa_1\Modele_A1_lib\BZX84C5V6.lib" 
.lib "C:\Users\Robert\Desktop\proiect 1\Lib_ModelePSpice_Anexa_1\Lib_ModelePSpice_Anexa_1\Modele_A1_lib\BZX84C5V1.lib" 
.lib "C:\Users\Robert\Desktop\proiect 1\Lib_ModelePSpice_Anexa_1\Lib_ModelePSpice_Anexa_1\Modele_A1_lib\BZX84C2V7.lib" 
.lib "C:\Users\Robert\Desktop\proiect 1\Lib_ModelePSpice_Anexa_1\Lib_ModelePSpice_Anexa_1\Modele_A1_lib\BC856B.lib" 
.lib "C:\Users\Robert\Desktop\proiect 1\Lib_ModelePSpice_Anexa_1\Lib_ModelePSpice_Anexa_1\Modele_A1_lib\BC846B.lib" 
.lib "C:\Users\Robert\Desktop\proiect 1\Lib_ModelePSpice_Anexa_1\Lib_ModelePSpice_Anexa_1\Modele_A1_lib\BC817-25.lib" 
.lib "C:\Users\Robert\Desktop\proiect 1\Lib_ModelePSpice_Anexa_1\Lib_ModelePSpice_Anexa_1\Modele_A1_lib\BC807-25.lib" 
.lib "C:\Users\Robert\Desktop\proiect 1\Lib_ModelePSpice_Anexa_1\Lib_ModelePSpice_Anexa_1\Modele_A1_lib\1N4148.lib" 
.lib "nom.lib" 

*Analysis directives: 
.OPTIONS ADVCONV
.PROBE64 V(alias(*)) I(alias(*)) W(alias(*)) D(alias(*)) NOISE(alias(*)) 
.INC "..\SCHEMATIC1.net" 



**** INCLUDING SCHEMATIC1.net ****
* source SCHEMA_INITIALA_OSC_TRIUNGHIULAR
R_R41         N177534 N177528  2.2k TC=0,0 
R_R25         0 N178134  10k TC=0,0 
Q_Q9         VDD N177442 N177534 QBC846B 
R_R53         N177442 N1783201  510 TC=0,0 
R_R4         N177038 VDD  15k TC=0,0 
R_R3         VEE N178540  15k TC=0,0 
R_R54         N178544 N178384  510 TC=0,0 
R_R57         N178134 N177800  10k TC=0,0 
D_D2         N177192 VDD BZX84-C2V7 
R_R51         N1782981 N178384  510 TC=0,0 
Q_Q15         N177246 N177760 N177820 QBC846B 
R_R38         N177528 N177192  2.2k TC=0,0 
Q_Q19         N177274 N177260 VDD QBC856B 
V_V2         VEE 0 -18
Q_Q7         N177442 N177246 VDD QBC856B 
Q_Q13         VEE N177568 N177800 QBC856B 
R_R55         N178550 N178544  510 TC=0,0 
Q_Q2         N176870 N178192 N178356 QBC846B 
Q_Q11         N177260 N177800 N177902 QBC846B 
X_POT2         VEE VEE N178540 POT PARAMS: SET=1 VALUE=50k
R_R45         N177534 N177522  2.2k TC=0,0 
X_POT1         N177038 N177038 VDD POT PARAMS: SET=1 VALUE=50k
Q_Q10         N177274 N177572 N177902 QBC846B 
R_R40         N178056 N177534  2.2k TC=0,0 
R_R8         VEE N177820  47k TC=0,0 
C_C1         0 N176870  100p  TC=0,0 
R_R52         N1783201 N1782981  510 TC=0,0 
R_R44         N177522 N177192  2.2k TC=0,0 
Q_Q16         N177176 0 N177820 QBC846B 
R_R5         N177122 N177038  1.5k TC=0,0 
V_V1         VDD 0 18
R_R32         0 N177626  47k TC=0,0 
Q_Q20         N177260 N177260 VDD QBC856B 
R_R28         N176870 N177760  150k TC=0,0 
X_POT3         N177626 N177572 N176870 POT PARAMS: SET=0.9 VALUE=500k
R_R19         VEE N177568  10K TC=0,0 
C_C4         0 N176870  470p  TC=0,0 
Q_Q12         N177568 N177274 VDD QBC856B 
R_R58         N177760 N177534  220k TC=0,0 
R_R16         VEE N177902  22k TC=0,0 
R_R34         N178540 N178356  1.5k TC=0,0 
Q_Q17         N177246 N177176 VDD QBC856B 
Q_Q8         VEE N177442 N177534 QBC856B 
Q_Q1         N176870 N177192 N177122 QBC856B 
R_R43         N178192 N178050  2.2k TC=0,0 
D_D1         VEE N178192 BZX84-C2V7 
R_R42         N178050 N177534  2.2k TC=0,0 
R_R56         VEE N178550  510 TC=0,0 
R_R39         N178192 N178056  2.2k TC=0,0 
Q_Q18         N177176 N177176 VDD QBC856B 
Q_Q14         VDD N177568 N177800 QBC846B 

**** RESUMING bias.cir ****
.END

**** 12/10/22 21:42:32 ******* PSpice 17.4.0 (Nov 2018) ******* ID# 0 ********

 ** Profile: "SCHEMATIC1-bias"  [ C:\Users\Robert\Desktop\proiect 1 initial\schema_initiala_osc_triunghiular-pspicefiles\schematic1\b


 ****     Diode MODEL PARAMETERS


******************************************************************************




               BZX84-C2V7      
          IS  110.880000E-18 
           N     .92657      
         ISR    1.515900E-06 
         IKF  147.68         
          BV    2.7639       
         IBV     .06977      
          RS     .85899      
          TT   17.889000E-09 
         CJO  344.690000E-12 
          VJ     .72935      
           M     .31964      


**** 12/10/22 21:42:32 ******* PSpice 17.4.0 (Nov 2018) ******* ID# 0 ********

 ** Profile: "SCHEMATIC1-bias"  [ C:\Users\Robert\Desktop\proiect 1 initial\schema_initiala_osc_triunghiular-pspicefiles\schematic1\b


 ****     BJT MODEL PARAMETERS


******************************************************************************




               QBC856B         QBC846B         
               PNP             NPN             
       LEVEL    1               1            
          IS   20.140000E-15   18.220000E-15 
          BF  315.3           324.4          
          NF     .9974           .9932       
         VAF   39.15           82            
         IKF     .079            .109        
         ISE    6.578000E-15  289.400000E-18 
          NE    1.45            1.4          
          BR    8.68            8.29         
          NR     .9952           .9931       
         VAR    9.5            17.9          
         IKR     .09             .09         
         ISC   16.330000E-15    9.982000E-12 
          NC    1.15            1.763        
         ISS    0               0            
          RB   10              10            
         RBM    5.000000E-06    5            
         IRB    5.000000E-06    5.000000E-06 
          RE     .663            .649        
          RC     .718            .7014       
         CJE   11.350000E-12   12.440000E-12 
         VJE     .7071           .7579       
         MJE     .3808           .3656       
         CJC    6.395000E-12    3.347000E-12 
         VJC     .4951           .5463       
         MJC     .44             .391        
        XCJC     .6288           .6193       
         CJS    0               0            
         VJS     .75             .75         
         MJS     .333            .333        
          FC     .9059           .979        
          TF  654.600000E-12  490.800000E-12 
         XTF    5.387           9.51         
         VTF    6.245           2.927        
         ITF     .2108           .3131       
          TR   55.000000E-09   90.000000E-09 
          KF    0               0            
          AF    1               1            
          CN    2.2             2.42         
           D     .52             .87         


**** 12/10/22 21:42:32 ******* PSpice 17.4.0 (Nov 2018) ******* ID# 0 ********

 ** Profile: "SCHEMATIC1-bias"  [ C:\Users\Robert\Desktop\proiect 1 initial\schema_initiala_osc_triunghiular-pspicefiles\schematic1\b


 ****     SMALL SIGNAL BIAS SOLUTION       TEMPERATURE =   27.000 DEG C


******************************************************************************



 NODE   VOLTAGE     NODE   VOLTAGE     NODE   VOLTAGE     NODE   VOLTAGE


(  VDD)   18.0000  (  VEE)  -18.0000  (N176870)   11.3590                       

(N177038)   16.0990                   (N177122)   15.8520                       

(N177176)   17.4060                   (N177192)   15.2640                       

(N177246)   17.4250                   (N177260)   17.3840                       

(N177274)   17.3510                   (N177442)  -17.2740                       

(N177522)    -.6448                   (N177528)    -.6448                       

(N177534)  -16.5540                   (N177568)    2.4915                       

(N177572)    1.9200                   (N177626)     .9303                       

(N177760)-158.4E-06                   (N177800)    1.9198                       

(N177820)    -.5879                   (N177902)    1.3092                       

(N178050)  -16.5570                   (N178056)  -16.5570                       

(N178134)     .9599                   (N178192)  -16.5590                       

(N178356)  -17.1180                   (N178384)  -17.6370                       

(N178540)  -17.2200                   (N178544)  -17.7580                       

(N178550)  -17.8790                   (N1782981)  -17.5160                      

(N1783201)  -17.3950                  




    VOLTAGE SOURCE CURRENTS
    NAME         CURRENT

    V_V2         1.808E-02
    V_V1        -1.820E-02

    TOTAL POWER DISSIPATION   6.53E-01  WATTS



          JOB CONCLUDED

**** 12/10/22 21:42:32 ******* PSpice 17.4.0 (Nov 2018) ******* ID# 0 ********

 ** Profile: "SCHEMATIC1-bias"  [ C:\Users\Robert\Desktop\proiect 1 initial\schema_initiala_osc_triunghiular-pspicefiles\schematic1\b


 ****     JOB STATISTICS SUMMARY


******************************************************************************



  Total job time (using Solver 1)   =         .27
